
T3D54 000:353 SEGGER J-Link V5.12e Log File (0001ms, 0281ms total)
T3D54 000:353 DLL Compiled: Apr 29 2016 15:03:58 (0001ms, 0281ms total)
T3D54 000:353 Logging started @ 2019-05-10 03:25 (0001ms, 0281ms total)
T3D54 000:354 JLINK_SetWarnOutHandler(...) (0000ms, 0281ms total)
T3D54 000:354 JLINK_OpenEx(...)
Firmware: J-Link ARM-OB STM32 compiled Aug 22 2012 19:52:04
Hardware: V7.00
S/N: 20090928
Feature(s): RDI,FlashDL,FlashBP,JFlash,GDBFull  returns O.K. (0263ms, 0544ms total)
T3D54 000:618 JLINK_SetErrorOutHandler(...) (0000ms, 0544ms total)
T3D54 000:618 JLINK_ExecCommand("ProjectFile = "F:\机器人ROBOTLAB\RoboMaster\7.电控组\1官方步兵代码\USER\JLinkSettings.ini"", ...)Device "STM32F427II" selected.  returns 0x00 (0030ms, 0574ms total)
T3D54 000:664 JLINK_ExecCommand("Device = STM32F427IIHx", ...)Device "STM32F427II" selected.  returns 0x00 (0007ms, 0581ms total)
T3D54 000:671 JLINK_ExecCommand("DisableConnectionTimeout", ...)  returns 0x01 (0000ms, 0581ms total)
T3D54 000:671 JLINK_GetHardwareVersion()  returns 0x11170 (0000ms, 0581ms total)
T3D54 000:671 JLINK_GetDLLVersion()  returns 51205 (0000ms, 0581ms total)
T3D54 000:671 JLINK_GetFirmwareString(...) (0000ms, 0581ms total)
T3D54 000:686 JLINK_GetDLLVersion()  returns 51205 (0000ms, 0581ms total)
T3D54 000:686 JLINK_GetCompileDateTime() (0000ms, 0581ms total)
T3D54 000:694 JLINK_GetFirmwareString(...) (0000ms, 0581ms total)
T3D54 000:699 JLINK_GetHardwareVersion()  returns 0x11170 (0000ms, 0581ms total)
T3D54 000:718 JLINK_TIF_Select(JLINKARM_TIF_SWD)  returns 0x00 (0000ms, 0581ms total)
T3D54 000:718 JLINK_SetSpeed(500) (0001ms, 0582ms total)
T3D54 000:719 JLINK_GetId() >0x108 TIF>Found SWD-DP with ID 0x2BA01477 >0x0D TIF> >0x28 TIF> >0x0D TIF> >0x28 TIF> >0x0D TIF> >0x28 TIF> >0x0D TIF> >0x28 TIF> >0x0D TIF> >0x21 TIF> >0x0D TIF> >0x28 TIF> >0x0D TIF> >0x28 TIF> >0x0D TIF> >0x28 TIF> >0x0D TIF> >0x21 TIF> >0x0D TIF> >0x21 TIF> >0x0D TIF> >0x28 TIF> >0x0D TIF> >0x21 TIF> >0x0D TIF> >0x21 TIF> >0x0D TIF> >0x28 TIF> >0x0D TIF> >0x28 TIF> >0x0D TIF> >0x28 TIF> >0x0D TIF> >0x21 TIF> >0x0D TIF> >0x21 TIF> >0x0D TIF> >0x28 TIF> >0x0D TIF>
 >0x28 TIF> >0x0D TIF> >0x28 TIF> >0x0D TIF> >0x21 TIF> >0x0D TIF> >0x21 TIF> >0x0D TIF> >0x28 TIF> >0x0D TIF> >0x21 TIF> >0x0D TIF> >0x21 TIF> >0x0D TIF> >0x28 TIF> >0x0D TIF> >0x21 TIF> >0x0D TIF> >0x21 TIF> >0x0D TIF> >0x28 TIF> >0x0D TIF> >0x21 TIF> >0x0D TIF> >0x21 TIF> >0x108 TIF>Found SWD-DP with ID 0x2BA01477 >0x0D TIF> >0x28 TIF> >0x0D TIF> >0x28 TIF> >0x0D TIF> >0x28 TIF> >0x0D TIF> >0x28 TIF> >0x0D TIF> >0x21 TIF> >0x0D TIF> >0x28 TIF> >0x0D TIF> >0x28 TIF> >0x0D TIF> >0x21 TIF> >0x0D TIF>
 >0x21 TIF> >0x0D TIF> >0x21 TIF> >0x0D TIF> >0x28 TIF> >0x0D TIF> >0x28 TIF> >0x0D TIF> >0x28 TIF> >0x0D TIF> >0x21 TIF> >0x0D TIF> >0x21 TIF> >0x0D TIF> >0x28 TIF> >0x0D TIF> >0x21 TIF> >0x0D TIF> >0x21 TIF>Found Cortex-M4 r0p1, Little endian. -- CPU_ReadMem(4 bytes @ 0xE000EDF0) -- CPU_WriteMem(4 bytes @ 0xE000EDF0) -- CPU_ReadMem(4 bytes @ 0xE0002000)FPUnit: 6 code (BP) slots and 2 literal slots -- CPU_ReadMem(4 bytes @ 0xE000EDFC) -- CPU_WriteMem(4 bytes @ 0xE000EDFC)
 -- CPU_ReadMem(4 bytes @ 0xE0001000) -- CPU_WriteMem(4 bytes @ 0xE0001000) -- CPU_ReadMem(4 bytes @ 0xE000ED88) -- CPU_WriteMem(4 bytes @ 0xE000ED88) -- CPU_ReadMem(4 bytes @ 0xE000ED88) -- CPU_WriteMem(4 bytes @ 0xE000ED88)CoreSight components:ROMTbl 0 @ E00FF000 -- CPU_ReadMem(16 bytes @ 0xE00FF000) -- CPU_ReadMem(16 bytes @ 0xE000EFF0) -- CPU_ReadMem(16 bytes @ 0xE000EFE0)ROMTbl 0 [0]: FFF0F000, CID: B105E00D, PID: 000BB00C SCS -- CPU_ReadMem(16 bytes @ 0xE0001FF0)
 -- CPU_ReadMem(16 bytes @ 0xE0001FE0)ROMTbl 0 [1]: FFF02000, CID: B105E00D, PID: 003BB002 DWT -- CPU_ReadMem(16 bytes @ 0xE0002FF0) -- CPU_ReadMem(16 bytes @ 0xE0002FE0)ROMTbl 0 [2]: FFF03000, CID: B105E00D, PID: 002BB003 FPB -- CPU_ReadMem(16 bytes @ 0xE0000FF0) -- CPU_ReadMem(16 bytes @ 0xE0000FE0)ROMTbl 0 [3]: FFF01000, CID: B105E00D, PID: 003BB001 ITM -- CPU_ReadMem(16 bytes @ 0xE00FF010) -- CPU_ReadMem(16 bytes @ 0xE0040FF0) -- CPU_ReadMem(16 bytes @ 0xE0040FE0)
ROMTbl 0 [4]: FFF41000, CID: B105900D, PID: 000BB9A1 TPIU -- CPU_ReadMem(16 bytes @ 0xE0041FF0) -- CPU_ReadMem(16 bytes @ 0xE0041FE0)ROMTbl 0 [5]: FFF42000, CID: B105900D, PID: 000BB925 ETM >0x0D TIF> >0x21 TIF>  returns 0x2BA01477 (0124ms, 0706ms total)
T3D54 000:843 JLINK_GetDLLVersion()  returns 51205 (0000ms, 0706ms total)
T3D54 000:844 JLINK_CORE_GetFound()  returns 0xE0000FF (0000ms, 0706ms total)
T3D54 000:844 JLINK_GetDebugInfo(0x100) -- Value=0xE00FF000  returns 0x00 (0000ms, 0706ms total)
T3D54 000:848 JLINK_GetDebugInfo(0x100) -- Value=0xE00FF000  returns 0x00 (0000ms, 0706ms total)
T3D54 000:848 JLINK_GetDebugInfo(0x101) -- Value=0xE0041000  returns 0x00 (0000ms, 0706ms total)
T3D54 000:848 JLINK_GetDebugInfo(0x102) -- Value=0x00000000  returns 0x00 (0000ms, 0706ms total)
T3D54 000:848 JLINK_GetDebugInfo(0x103) -- Value=0xE0040000  returns 0x00 (0001ms, 0707ms total)
T3D54 000:849 JLINK_GetDebugInfo(0x104) -- Value=0xE0000000  returns 0x00 (0000ms, 0707ms total)
T3D54 000:849 JLINK_GetDebugInfo(0x105) -- Value=0xE0001000  returns 0x00 (0000ms, 0707ms total)
T3D54 000:849 JLINK_GetDebugInfo(0x106) -- Value=0xE0002000  returns 0x00 (0000ms, 0707ms total)
T3D54 000:849 JLINK_GetDebugInfo(0x107) -- Value=0xE000E000  returns 0x00 (0000ms, 0707ms total)
T3D54 000:849 JLINK_GetDebugInfo(0x10C) -- Value=0xE000EDF0  returns 0x00 (0000ms, 0707ms total)
T3D54 000:849 JLINK_ReadMemU32(0xE000EF40, 0x0001 Items, ...) -- CPU is running -- CPU_ReadMem(4 bytes @ 0xE000EF40) - Data: 21 00 11 10  returns 0x01 (0001ms, 0708ms total)
T3D54 000:850 JLINK_ReadMemU32(0xE000EF44, 0x0001 Items, ...) -- CPU is running -- CPU_ReadMem(4 bytes @ 0xE000EF44) - Data: 11 00 00 11  returns 0x01 (0002ms, 0710ms total)
T3D54 000:852 JLINK_ReadMemU32(0xE000ED00, 0x0001 Items, ...) -- CPU is running -- CPU_ReadMem(4 bytes @ 0xE000ED00) - Data: 41 C2 0F 41  returns 0x01 (0001ms, 0711ms total)
T3D54 000:853 JLINK_SetResetType(JLINKARM_RESET_TYPE_NORMAL)  returns JLINKARM_RESET_TYPE_NORMAL (0000ms, 0711ms total)
T3D54 000:853 JLINK_Reset() -- CPU is running -- CPU_WriteMem(4 bytes @ 0xE000EDF0) -- CPU is running -- CPU_WriteMem(4 bytes @ 0xE000EDFC) >0x35 TIF> -- CPU is running -- CPU_WriteMem(4 bytes @ 0xE000ED0C) -- CPU is running -- CPU_ReadMem(4 bytes @ 0xE000EDF0) -- CPU is running -- CPU_ReadMem(4 bytes @ 0xE000EDF0) -- CPU is running -- CPU_WriteMem(4 bytes @ 0xE000EDF0) -- CPU is running -- CPU_WriteMem(4 bytes @ 0xE000EDFC) -- CPU is running -- CPU_ReadMem(4 bytes @ 0xE000EDF0)
 -- CPU_WriteMem(4 bytes @ 0xE0002000) -- CPU_ReadMem(4 bytes @ 0xE000EDFC) -- CPU_ReadMem(4 bytes @ 0xE0001000) (0035ms, 0746ms total)
T3D54 000:888 JLINK_Halt()  returns 0x00 (0000ms, 0746ms total)
T3D54 000:888 JLINK_IsHalted()  returns TRUE (0000ms, 0746ms total)
T3D54 000:888 JLINK_ReadMemU32(0xE000EDF0, 0x0001 Items, ...) -- CPU_ReadMem(4 bytes @ 0xE000EDF0) - Data: 03 00 03 00  returns 0x01 (0002ms, 0748ms total)
T3D54 000:890 JLINK_WriteU32(0xE000EDF0, 0xA05F0003) -- CPU_WriteMem(4 bytes @ 0xE000EDF0)  returns 0x00 (0001ms, 0749ms total)
T3D54 000:891 JLINK_WriteU32(0xE000EDFC, 0x01000000) -- CPU_WriteMem(4 bytes @ 0xE000EDFC)  returns 0x00 (0002ms, 0751ms total)
T3D54 000:921 JLINK_GetHWStatus(...)  returns 0x00 (0000ms, 0751ms total)
T3D54 000:939 JLINK_GetNumBPUnits(Type = 0xFFFFFF00)  returns 0x06 (0000ms, 0751ms total)
T3D54 000:939 JLINK_GetNumBPUnits(Type = 0xF0)  returns 0x2000 (0000ms, 0751ms total)
T3D54 000:939 JLINK_GetNumWPUnits()  returns 0x04 (0000ms, 0751ms total)
T3D54 000:964 JLINK_GetSpeed()  returns 0x1F4 (0000ms, 0751ms total)
T3D54 000:973 JLINK_ReadMemU32(0xE000E004, 0x0001 Items, ...) -- CPU_ReadMem(4 bytes @ 0xE000E004) - Data: 02 00 00 00  returns 0x01 (0002ms, 0753ms total)
T3D54 000:975 JLINK_ReadMemU32(0xE000E004, 0x0001 Items, ...) -- CPU_ReadMem(4 bytes @ 0xE000E004) - Data: 02 00 00 00  returns 0x01 (0001ms, 0754ms total)
T3D54 000:976 JLINK_WriteMem(0xE0001000, 0x001C Bytes, ...) - Data: 01 00 00 00 00 00 00 00 00 00 00 00 00 00 00 00 ... -- CPU_WriteMem(28 bytes @ 0xE0001000)  returns 0x1C (0004ms, 0758ms total)
T3D54 000:980 JLINK_ReadMem (0xE0001000, 0x001C Bytes, ...) -- CPU_ReadMem(28 bytes @ 0xE0001000) - Data: 01 00 00 40 00 00 00 00 00 00 00 00 00 00 00 00 ...  returns 0x00 (0002ms, 0760ms total)
T3D54 000:982 JLINK_Halt()  returns 0x00 (0000ms, 0760ms total)
T3D54 000:982 JLINK_IsHalted()  returns TRUE (0000ms, 0760ms total)
T3D54 001:010 JLINK_WriteMem(0x20000000, 0x0198 Bytes, ...) - Data: 00 BE 0A E0 0D 78 2D 06 68 40 08 24 40 00 00 D3 ... -- CPU_WriteMem(408 bytes @ 0x20000000)  returns 0x198 (0021ms, 0781ms total)
T3D54 001:031 JLINK_WriteReg(R0, 0x08000000)  returns 0x00 (0000ms, 0781ms total)
T3D54 001:031 JLINK_WriteReg(R1, 0x0ABA9500)  returns 0x00 (0000ms, 0781ms total)
T3D54 001:031 JLINK_WriteReg(R2, 0x00000001)  returns 0x00 (0000ms, 0781ms total)
T3D54 001:031 JLINK_WriteReg(R3, 0x00000000)  returns 0x00 (0000ms, 0781ms total)
T3D54 001:031 JLINK_WriteReg(R4, 0x00000000)  returns 0x00 (0000ms, 0781ms total)
T3D54 001:031 JLINK_WriteReg(R5, 0x00000000)  returns 0x00 (0000ms, 0781ms total)
T3D54 001:031 JLINK_WriteReg(R6, 0x00000000)  returns 0x00 (0000ms, 0781ms total)
T3D54 001:031 JLINK_WriteReg(R7, 0x00000000)  returns 0x00 (0000ms, 0781ms total)
T3D54 001:031 JLINK_WriteReg(R8, 0x00000000)  returns 0x00 (0000ms, 0781ms total)
T3D54 001:031 JLINK_WriteReg(R9, 0x20000194)  returns 0x00 (0000ms, 0781ms total)
T3D54 001:031 JLINK_WriteReg(R10, 0x00000000)  returns 0x00 (0001ms, 0782ms total)
T3D54 001:032 JLINK_WriteReg(R11, 0x00000000)  returns 0x00 (0000ms, 0782ms total)
T3D54 001:032 JLINK_WriteReg(R12, 0x00000000)  returns 0x00 (0000ms, 0782ms total)
T3D54 001:032 JLINK_WriteReg(R13 (SP), 0x20001000)  returns 0x00 (0000ms, 0782ms total)
T3D54 001:032 JLINK_WriteReg(R14, 0x20000001)  returns 0x00 (0000ms, 0782ms total)
T3D54 001:032 JLINK_WriteReg(R15 (PC), 0x2000005E)  returns 0x00 (0000ms, 0782ms total)
T3D54 001:032 JLINK_WriteReg(XPSR, 0x01000000)  returns 0x00 (0000ms, 0782ms total)
T3D54 001:032 JLINK_WriteReg(MSP, 0x20001000)  returns 0x00 (0000ms, 0782ms total)
T3D54 001:032 JLINK_WriteReg(PSP, 0x20001000)  returns 0x00 (0000ms, 0782ms total)
T3D54 001:032 JLINK_WriteReg(CFBP, 0x00000000)  returns 0x00 (0000ms, 0782ms total)
T3D54 001:032 JLINK_SetBPEx(Addr = 0x20000000, Type = 0xFFFFFFF2) -- CPU_ReadMem(2 bytes @ 0x20000000)  returns 0x00000001 (0001ms, 0783ms total)
T3D54 001:033 JLINK_Go() -- CPU_WriteMem(2 bytes @ 0x20000000) -- CPU_ReadMem(4 bytes @ 0xE0001000) -- CPU_WriteMem(4 bytes @ 0xE0002008) -- CPU_WriteMem(4 bytes @ 0xE000200C) -- CPU_WriteMem(4 bytes @ 0xE0002010) -- CPU_WriteMem(4 bytes @ 0xE0002014) -- CPU_WriteMem(4 bytes @ 0xE0002018) -- CPU_WriteMem(4 bytes @ 0xE000201C) -- CPU_WriteMem(4 bytes @ 0xE0001004) (0017ms, 0800ms total)
T3D54 001:050 JLINK_IsHalted() -- CPU_ReadMem(2 bytes @ 0x20000000)  returns TRUE (0013ms, 0813ms total)
T3D54 001:063 JLINK_ReadReg(R15 (PC))  returns 0x20000000 (0000ms, 0800ms total)
T3D54 001:064 JLINK_ClrBPEx(BPHandle = 0x00000001)  returns 0x00 (0000ms, 0801ms total)
T3D54 001:064 JLINK_ReadReg(R0)  returns 0x00000000 (0000ms, 0801ms total)
T3D54 001:064 JLINK_WriteReg(R0, 0x08000000)  returns 0x00 (0000ms, 0801ms total)
T3D54 001:065 JLINK_WriteReg(R1, 0x00004000)  returns 0x00 (0000ms, 0802ms total)
T3D54 001:065 JLINK_WriteReg(R2, 0x000000FF)  returns 0x00 (0000ms, 0802ms total)
T3D54 001:065 JLINK_WriteReg(R3, 0x00000000)  returns 0x00 (0000ms, 0802ms total)
T3D54 001:065 JLINK_WriteReg(R4, 0x00000000)  returns 0x00 (0000ms, 0802ms total)
T3D54 001:065 JLINK_WriteReg(R5, 0x00000000)  returns 0x00 (0000ms, 0802ms total)
T3D54 001:065 JLINK_WriteReg(R6, 0x00000000)  returns 0x00 (0000ms, 0802ms total)
T3D54 001:065 JLINK_WriteReg(R7, 0x00000000)  returns 0x00 (0000ms, 0802ms total)
T3D54 001:065 JLINK_WriteReg(R8, 0x00000000)  returns 0x00 (0000ms, 0802ms total)
T3D54 001:065 JLINK_WriteReg(R9, 0x20000194)  returns 0x00 (0000ms, 0802ms total)
T3D54 001:065 JLINK_WriteReg(R10, 0x00000000)  returns 0x00 (0000ms, 0802ms total)
T3D54 001:065 JLINK_WriteReg(R11, 0x00000000)  returns 0x00 (0000ms, 0802ms total)
T3D54 001:065 JLINK_WriteReg(R12, 0x00000000)  returns 0x00 (0000ms, 0802ms total)
T3D54 001:065 JLINK_WriteReg(R13 (SP), 0x20001000)  returns 0x00 (0000ms, 0802ms total)
T3D54 001:065 JLINK_WriteReg(R14, 0x20000001)  returns 0x00 (0000ms, 0802ms total)
T3D54 001:065 JLINK_WriteReg(R15 (PC), 0x20000020)  returns 0x00 (0000ms, 0802ms total)
T3D54 001:065 JLINK_WriteReg(XPSR, 0x01000000)  returns 0x00 (0000ms, 0802ms total)
T3D54 001:065 JLINK_WriteReg(MSP, 0x20001000)  returns 0x00 (0001ms, 0803ms total)
T3D54 001:066 JLINK_WriteReg(PSP, 0x20001000)  returns 0x00 (0000ms, 0803ms total)
T3D54 001:066 JLINK_WriteReg(CFBP, 0x00000000)  returns 0x00 (0000ms, 0803ms total)
T3D54 001:066 JLINK_SetBPEx(Addr = 0x20000000, Type = 0xFFFFFFF2)  returns 0x00000002 (0000ms, 0803ms total)
T3D54 001:066 JLINK_Go() -- CPU_ReadMem(4 bytes @ 0xE0001000) (0006ms, 0809ms total)
T3D54 001:072 JLINK_IsHalted() -- CPU_ReadMem(2 bytes @ 0x20000000)  returns TRUE (0013ms, 0822ms total)
T3D54 001:085 JLINK_ReadReg(R15 (PC))  returns 0x20000000 (0000ms, 0809ms total)
T3D54 001:085 JLINK_ClrBPEx(BPHandle = 0x00000002)  returns 0x00 (0000ms, 0809ms total)
T3D54 001:085 JLINK_ReadReg(R0)  returns 0x00000001 (0000ms, 0809ms total)
T3D54 001:085 JLINK_WriteReg(R0, 0x08000000)  returns 0x00 (0000ms, 0809ms total)
T3D54 001:085 JLINK_WriteReg(R1, 0x00004000)  returns 0x00 (0000ms, 0809ms total)
T3D54 001:085 JLINK_WriteReg(R2, 0x000000FF)  returns 0x00 (0000ms, 0809ms total)
T3D54 001:085 JLINK_WriteReg(R3, 0x00000000)  returns 0x00 (0000ms, 0809ms total)
T3D54 001:085 JLINK_WriteReg(R4, 0x00000000)  returns 0x00 (0000ms, 0809ms total)
T3D54 001:085 JLINK_WriteReg(R5, 0x00000000)  returns 0x00 (0001ms, 0810ms total)
T3D54 001:086 JLINK_WriteReg(R6, 0x00000000)  returns 0x00 (0000ms, 0810ms total)
T3D54 001:086 JLINK_WriteReg(R7, 0x00000000)  returns 0x00 (0000ms, 0810ms total)
T3D54 001:086 JLINK_WriteReg(R8, 0x00000000)  returns 0x00 (0000ms, 0810ms total)
T3D54 001:086 JLINK_WriteReg(R9, 0x20000194)  returns 0x00 (0000ms, 0810ms total)
T3D54 001:086 JLINK_WriteReg(R10, 0x00000000)  returns 0x00 (0000ms, 0810ms total)
T3D54 001:086 JLINK_WriteReg(R11, 0x00000000)  returns 0x00 (0000ms, 0810ms total)
T3D54 001:086 JLINK_WriteReg(R12, 0x00000000)  returns 0x00 (0000ms, 0810ms total)
T3D54 001:086 JLINK_WriteReg(R13 (SP), 0x20001000)  returns 0x00 (0000ms, 0810ms total)
T3D54 001:086 JLINK_WriteReg(R14, 0x20000001)  returns 0x00 (0000ms, 0810ms total)
T3D54 001:086 JLINK_WriteReg(R15 (PC), 0x200000D4)  returns 0x00 (0000ms, 0810ms total)
T3D54 001:086 JLINK_WriteReg(XPSR, 0x01000000)  returns 0x00 (0000ms, 0810ms total)
T3D54 001:086 JLINK_WriteReg(MSP, 0x20001000)  returns 0x00 (0000ms, 0810ms total)
T3D54 001:086 JLINK_WriteReg(PSP, 0x20001000)  returns 0x00 (0000ms, 0810ms total)
T3D54 001:086 JLINK_WriteReg(CFBP, 0x00000000)  returns 0x00 (0000ms, 0810ms total)
T3D54 001:086 JLINK_SetBPEx(Addr = 0x20000000, Type = 0xFFFFFFF2)  returns 0x00000003 (0000ms, 0810ms total)
T3D54 001:086 JLINK_Go() -- CPU_ReadMem(4 bytes @ 0xE0001000) (0006ms, 0816ms total)
T3D54 001:093 JLINK_IsHalted()  returns FALSE (0001ms, 0817ms total)
T3D54 001:213 JLINK_IsHalted()  returns FALSE (0001ms, 0817ms total)
T3D54 001:215 JLINK_IsHalted()  returns FALSE (0001ms, 0817ms total)
T3D54 001:218 JLINK_IsHalted()  returns FALSE (0001ms, 0817ms total)
T3D54 001:221 JLINK_IsHalted()  returns FALSE (0001ms, 0817ms total)
T3D54 001:224 JLINK_IsHalted()  returns FALSE (0001ms, 0817ms total)
T3D54 001:227 JLINK_IsHalted()  returns FALSE (0001ms, 0817ms total)
T3D54 001:230 JLINK_IsHalted()  returns FALSE (0001ms, 0817ms total)
T3D54 001:233 JLINK_IsHalted()  returns FALSE (0001ms, 0817ms total)
T3D54 001:238 JLINK_IsHalted()  returns FALSE (0001ms, 0817ms total)
T3D54 001:241 JLINK_IsHalted()  returns FALSE (0001ms, 0817ms total)
T3D54 001:244 JLINK_IsHalted()  returns FALSE (0001ms, 0817ms total)
T3D54 001:246 JLINK_IsHalted()  returns FALSE (0001ms, 0817ms total)
T3D54 001:250 JLINK_IsHalted()  returns FALSE (0001ms, 0817ms total)
T3D54 001:252 JLINK_IsHalted()  returns FALSE (0002ms, 0818ms total)
T3D54 001:255 JLINK_IsHalted()  returns FALSE (0001ms, 0817ms total)
T3D54 001:258 JLINK_IsHalted()  returns FALSE (0001ms, 0817ms total)
T3D54 001:261 JLINK_IsHalted()  returns FALSE (0001ms, 0817ms total)
T3D54 001:264 JLINK_IsHalted()  returns FALSE (0001ms, 0817ms total)
T3D54 001:267 JLINK_IsHalted()  returns FALSE (0001ms, 0817ms total)
T3D54 001:270 JLINK_IsHalted()  returns FALSE (0001ms, 0817ms total)
T3D54 001:273 JLINK_IsHalted()  returns FALSE (0001ms, 0817ms total)
T3D54 001:276 JLINK_IsHalted()  returns FALSE (0001ms, 0817ms total)
T3D54 001:279 JLINK_IsHalted()  returns FALSE (0001ms, 0817ms total)
T3D54 001:282 JLINK_IsHalted()  returns FALSE (0001ms, 0817ms total)
T3D54 001:285 JLINK_IsHalted()  returns FALSE (0001ms, 0817ms total)
T3D54 001:288 JLINK_IsHalted()  returns FALSE (0001ms, 0817ms total)
T3D54 001:291 JLINK_IsHalted()  returns FALSE (0001ms, 0817ms total)
T3D54 001:294 JLINK_IsHalted()  returns FALSE (0002ms, 0818ms total)
T3D54 001:300 JLINK_IsHalted()  returns FALSE (0001ms, 0817ms total)
T3D54 001:303 JLINK_IsHalted()  returns FALSE (0001ms, 0817ms total)
T3D54 001:306 JLINK_IsHalted()  returns FALSE (0001ms, 0817ms total)
T3D54 001:309 JLINK_IsHalted()  returns FALSE (0001ms, 0817ms total)
T3D54 001:312 JLINK_IsHalted()  returns FALSE (0001ms, 0817ms total)
T3D54 001:315 JLINK_IsHalted()  returns FALSE (0001ms, 0817ms total)
T3D54 001:318 JLINK_IsHalted()  returns FALSE (0001ms, 0817ms total)
T3D54 001:324 JLINK_IsHalted()  returns FALSE (0001ms, 0817ms total)
T3D54 001:327 JLINK_IsHalted()  returns FALSE (0001ms, 0817ms total)
T3D54 001:330 JLINK_IsHalted()  returns FALSE (0001ms, 0817ms total)
T3D54 001:333 JLINK_IsHalted()  returns FALSE (0001ms, 0817ms total)
T3D54 001:339 JLINK_IsHalted()  returns FALSE (0001ms, 0817ms total)
T3D54 001:345 JLINK_IsHalted()  returns FALSE (0001ms, 0817ms total)
T3D54 001:348 JLINK_IsHalted()  returns FALSE (0001ms, 0817ms total)
T3D54 001:353 JLINK_IsHalted()  returns FALSE (0001ms, 0817ms total)
T3D54 001:356 JLINK_IsHalted()  returns FALSE (0001ms, 0817ms total)
T3D54 001:363 JLINK_IsHalted()  returns FALSE (0001ms, 0817ms total)
T3D54 001:369 JLINK_IsHalted()  returns FALSE (0001ms, 0817ms total)
T3D54 001:372 JLINK_IsHalted()  returns FALSE (0001ms, 0817ms total)
T3D54 001:379 JLINK_IsHalted()  returns FALSE (0001ms, 0817ms total)
T3D54 001:385 JLINK_IsHalted()  returns FALSE (0001ms, 0817ms total)
T3D54 001:388 JLINK_IsHalted()  returns FALSE (0001ms, 0817ms total)
T3D54 001:396 JLINK_IsHalted()  returns FALSE (0001ms, 0817ms total)
T3D54 001:403 JLINK_IsHalted()  returns FALSE (0001ms, 0817ms total)
T3D54 001:412 JLINK_IsHalted()  returns FALSE (0001ms, 0818ms total)
T3D54 001:417 JLINK_IsHalted()  returns FALSE (0001ms, 0818ms total)
T3D54 001:420 JLINK_IsHalted()  returns FALSE (0001ms, 0818ms total)
T3D54 001:426 JLINK_IsHalted()  returns FALSE (0001ms, 0818ms total)
T3D54 001:429 JLINK_IsHalted()  returns FALSE (0001ms, 0818ms total)
T3D54 001:434 JLINK_IsHalted()  returns FALSE (0001ms, 0818ms total)
T3D54 001:437 JLINK_IsHalted()  returns FALSE (0001ms, 0818ms total)
T3D54 001:442 JLINK_IsHalted()  returns FALSE (0001ms, 0818ms total)
T3D54 001:445 JLINK_IsHalted()  returns FALSE (0001ms, 0818ms total)
T3D54 001:451 JLINK_IsHalted()  returns FALSE (0001ms, 0818ms total)
T3D54 001:454 JLINK_IsHalted()  returns FALSE (0001ms, 0818ms total)
T3D54 001:460 JLINK_IsHalted()  returns FALSE (0001ms, 0818ms total)
T3D54 001:466 JLINK_IsHalted() -- CPU_ReadMem(2 bytes @ 0x20000000)  returns TRUE (0012ms, 0829ms total)
T3D54 001:478 JLINK_ReadReg(R15 (PC))  returns 0x20000000 (0000ms, 0817ms total)
T3D54 001:478 JLINK_ClrBPEx(BPHandle = 0x00000003)  returns 0x00 (0000ms, 0817ms total)
T3D54 001:478 JLINK_ReadReg(R0)  returns 0x00000000 (0000ms, 0817ms total)
T3D54 001:479 JLINK_WriteReg(R0, 0x08004000)  returns 0x00 (0000ms, 0817ms total)
T3D54 001:479 JLINK_WriteReg(R1, 0x00004000)  returns 0x00 (0000ms, 0817ms total)
T3D54 001:479 JLINK_WriteReg(R2, 0x000000FF)  returns 0x00 (0000ms, 0817ms total)
T3D54 001:479 JLINK_WriteReg(R3, 0x00000000)  returns 0x00 (0000ms, 0817ms total)
T3D54 001:479 JLINK_WriteReg(R4, 0x00000000)  returns 0x00 (0000ms, 0817ms total)
T3D54 001:479 JLINK_WriteReg(R5, 0x00000000)  returns 0x00 (0000ms, 0817ms total)
T3D54 001:479 JLINK_WriteReg(R6, 0x00000000)  returns 0x00 (0000ms, 0817ms total)
T3D54 001:479 JLINK_WriteReg(R7, 0x00000000)  returns 0x00 (0000ms, 0817ms total)
T3D54 001:479 JLINK_WriteReg(R8, 0x00000000)  returns 0x00 (0001ms, 0818ms total)
T3D54 001:480 JLINK_WriteReg(R9, 0x20000194)  returns 0x00 (0000ms, 0818ms total)
T3D54 001:480 JLINK_WriteReg(R10, 0x00000000)  returns 0x00 (0000ms, 0818ms total)
T3D54 001:480 JLINK_WriteReg(R11, 0x00000000)  returns 0x00 (0000ms, 0818ms total)
T3D54 001:480 JLINK_WriteReg(R12, 0x00000000)  returns 0x00 (0000ms, 0818ms total)
T3D54 001:480 JLINK_WriteReg(R13 (SP), 0x20001000)  returns 0x00 (0000ms, 0818ms total)
T3D54 001:480 JLINK_WriteReg(R14, 0x20000001)  returns 0x00 (0000ms, 0818ms total)
T3D54 001:480 JLINK_WriteReg(R15 (PC), 0x20000020)  returns 0x00 (0000ms, 0818ms total)
T3D54 001:480 JLINK_WriteReg(XPSR, 0x01000000)  returns 0x00 (0000ms, 0818ms total)
T3D54 001:480 JLINK_WriteReg(MSP, 0x20001000)  returns 0x00 (0000ms, 0818ms total)
T3D54 001:480 JLINK_WriteReg(PSP, 0x20001000)  returns 0x00 (0000ms, 0818ms total)
T3D54 001:480 JLINK_WriteReg(CFBP, 0x00000000)  returns 0x00 (0000ms, 0818ms total)
T3D54 001:480 JLINK_SetBPEx(Addr = 0x20000000, Type = 0xFFFFFFF2)  returns 0x00000004 (0000ms, 0818ms total)
T3D54 001:480 JLINK_Go() -- CPU_ReadMem(4 bytes @ 0xE0001000) (0007ms, 0825ms total)
T3D54 001:487 JLINK_IsHalted() -- CPU_ReadMem(2 bytes @ 0x20000000)  returns TRUE (0013ms, 0838ms total)
T3D54 001:500 JLINK_ReadReg(R15 (PC))  returns 0x20000000 (0000ms, 0825ms total)
T3D54 001:500 JLINK_ClrBPEx(BPHandle = 0x00000004)  returns 0x00 (0000ms, 0825ms total)
T3D54 001:500 JLINK_ReadReg(R0)  returns 0x00000001 (0000ms, 0825ms total)
T3D54 001:500 JLINK_WriteReg(R0, 0x08004000)  returns 0x00 (0000ms, 0825ms total)
T3D54 001:500 JLINK_WriteReg(R1, 0x00004000)  returns 0x00 (0000ms, 0825ms total)
T3D54 001:500 JLINK_WriteReg(R2, 0x000000FF)  returns 0x00 (0000ms, 0825ms total)
T3D54 001:500 JLINK_WriteReg(R3, 0x00000000)  returns 0x00 (0000ms, 0825ms total)
T3D54 001:500 JLINK_WriteReg(R4, 0x00000000)  returns 0x00 (0000ms, 0825ms total)
T3D54 001:500 JLINK_WriteReg(R5, 0x00000000)  returns 0x00 (0000ms, 0825ms total)
T3D54 001:500 JLINK_WriteReg(R6, 0x00000000)  returns 0x00 (0000ms, 0825ms total)
T3D54 001:500 JLINK_WriteReg(R7, 0x00000000)  returns 0x00 (0000ms, 0825ms total)
T3D54 001:500 JLINK_WriteReg(R8, 0x00000000)  returns 0x00 (0000ms, 0825ms total)
T3D54 001:500 JLINK_WriteReg(R9, 0x20000194)  returns 0x00 (0000ms, 0825ms total)
T3D54 001:500 JLINK_WriteReg(R10, 0x00000000)  returns 0x00 (0000ms, 0825ms total)
T3D54 001:501 JLINK_WriteReg(R11, 0x00000000)  returns 0x00 (0000ms, 0826ms total)
T3D54 001:501 JLINK_WriteReg(R12, 0x00000000)  returns 0x00 (0000ms, 0826ms total)
T3D54 001:501 JLINK_WriteReg(R13 (SP), 0x20001000)  returns 0x00 (0000ms, 0826ms total)
T3D54 001:501 JLINK_WriteReg(R14, 0x20000001)  returns 0x00 (0000ms, 0826ms total)
T3D54 001:501 JLINK_WriteReg(R15 (PC), 0x200000D4)  returns 0x00 (0000ms, 0826ms total)
T3D54 001:501 JLINK_WriteReg(XPSR, 0x01000000)  returns 0x00 (0000ms, 0826ms total)
T3D54 001:501 JLINK_WriteReg(MSP, 0x20001000)  returns 0x00 (0000ms, 0826ms total)
T3D54 001:501 JLINK_WriteReg(PSP, 0x20001000)  returns 0x00 (0000ms, 0826ms total)
T3D54 001:501 JLINK_WriteReg(CFBP, 0x00000000)  returns 0x00 (0000ms, 0826ms total)
T3D54 001:501 JLINK_SetBPEx(Addr = 0x20000000, Type = 0xFFFFFFF2)  returns 0x00000005 (0000ms, 0826ms total)
T3D54 001:501 JLINK_Go() -- CPU_ReadMem(4 bytes @ 0xE0001000) (0005ms, 0831ms total)
T3D54 001:507 JLINK_IsHalted()  returns FALSE (0001ms, 0832ms total)
T3D54 001:512 JLINK_IsHalted()  returns FALSE (0001ms, 0832ms total)
T3D54 001:515 JLINK_IsHalted()  returns FALSE (0001ms, 0832ms total)
T3D54 001:522 JLINK_IsHalted()  returns FALSE (0001ms, 0832ms total)
T3D54 001:525 JLINK_IsHalted()  returns FALSE (0001ms, 0832ms total)
T3D54 001:531 JLINK_IsHalted()  returns FALSE (0001ms, 0832ms total)
T3D54 001:537 JLINK_IsHalted()  returns FALSE (0001ms, 0832ms total)
T3D54 001:540 JLINK_IsHalted()  returns FALSE (0001ms, 0832ms total)
T3D54 001:545 JLINK_IsHalted()  returns FALSE (0001ms, 0832ms total)
T3D54 001:548 JLINK_IsHalted()  returns FALSE (0001ms, 0832ms total)
T3D54 001:553 JLINK_IsHalted()  returns FALSE (0001ms, 0832ms total)
T3D54 001:555 JLINK_IsHalted()  returns FALSE (0002ms, 0833ms total)
T3D54 001:561 JLINK_IsHalted()  returns FALSE (0001ms, 0832ms total)
T3D54 001:564 JLINK_IsHalted()  returns FALSE (0001ms, 0832ms total)
T3D54 001:566 JLINK_IsHalted()  returns FALSE (0001ms, 0832ms total)
T3D54 001:570 JLINK_IsHalted()  returns FALSE (0001ms, 0832ms total)
T3D54 001:573 JLINK_IsHalted()  returns FALSE (0001ms, 0832ms total)
T3D54 001:576 JLINK_IsHalted()  returns FALSE (0001ms, 0832ms total)
T3D54 001:579 JLINK_IsHalted()  returns FALSE (0001ms, 0832ms total)
T3D54 001:582 JLINK_IsHalted()  returns FALSE (0001ms, 0832ms total)
T3D54 001:585 JLINK_IsHalted()  returns FALSE (0001ms, 0832ms total)
T3D54 001:588 JLINK_IsHalted()  returns FALSE (0001ms, 0832ms total)
T3D54 001:591 JLINK_IsHalted()  returns FALSE (0001ms, 0832ms total)
T3D54 001:593 JLINK_IsHalted()  returns FALSE (0002ms, 0833ms total)
T3D54 001:597 JLINK_IsHalted()  returns FALSE (0001ms, 0832ms total)
T3D54 001:603 JLINK_IsHalted()  returns FALSE (0001ms, 0832ms total)
T3D54 001:606 JLINK_IsHalted()  returns FALSE (0001ms, 0832ms total)
T3D54 001:613 JLINK_IsHalted()  returns FALSE (0001ms, 0832ms total)
T3D54 001:619 JLINK_IsHalted()  returns FALSE (0001ms, 0832ms total)
T3D54 001:622 JLINK_IsHalted()  returns FALSE (0001ms, 0832ms total)
T3D54 001:625 JLINK_IsHalted()  returns FALSE (0002ms, 0833ms total)
T3D54 001:628 JLINK_IsHalted()  returns FALSE (0001ms, 0832ms total)
T3D54 001:633 JLINK_IsHalted()  returns FALSE (0001ms, 0832ms total)
T3D54 001:636 JLINK_IsHalted()  returns FALSE (0001ms, 0832ms total)
T3D54 001:639 JLINK_IsHalted()  returns FALSE (0001ms, 0832ms total)
T3D54 001:642 JLINK_IsHalted()  returns FALSE (0001ms, 0832ms total)
T3D54 001:645 JLINK_IsHalted()  returns FALSE (0001ms, 0832ms total)
T3D54 001:648 JLINK_IsHalted()  returns FALSE (0001ms, 0832ms total)
T3D54 001:651 JLINK_IsHalted()  returns FALSE (0001ms, 0832ms total)
T3D54 001:654 JLINK_IsHalted()  returns FALSE (0001ms, 0832ms total)
T3D54 001:657 JLINK_IsHalted()  returns FALSE (0001ms, 0832ms total)
T3D54 001:660 JLINK_IsHalted()  returns FALSE (0001ms, 0832ms total)
T3D54 001:670 JLINK_IsHalted()  returns FALSE (0001ms, 0832ms total)
T3D54 001:673 JLINK_IsHalted()  returns FALSE (0001ms, 0832ms total)
T3D54 001:676 JLINK_IsHalted()  returns FALSE (0001ms, 0832ms total)
T3D54 001:679 JLINK_IsHalted()  returns FALSE (0001ms, 0832ms total)
T3D54 001:682 JLINK_IsHalted()  returns FALSE (0001ms, 0832ms total)
T3D54 001:685 JLINK_IsHalted()  returns FALSE (0001ms, 0832ms total)
T3D54 001:688 JLINK_IsHalted()  returns FALSE (0001ms, 0832ms total)
T3D54 001:691 JLINK_IsHalted()  returns FALSE (0001ms, 0832ms total)
T3D54 001:694 JLINK_IsHalted()  returns FALSE (0001ms, 0832ms total)
T3D54 001:697 JLINK_IsHalted()  returns FALSE (0001ms, 0832ms total)
T3D54 001:700 JLINK_IsHalted()  returns FALSE (0001ms, 0832ms total)
T3D54 001:703 JLINK_IsHalted()  returns FALSE (0001ms, 0832ms total)
T3D54 001:706 JLINK_IsHalted()  returns FALSE (0001ms, 0832ms total)
T3D54 001:709 JLINK_IsHalted()  returns FALSE (0001ms, 0832ms total)
T3D54 001:712 JLINK_IsHalted()  returns FALSE (0001ms, 0832ms total)
T3D54 001:715 JLINK_IsHalted()  returns FALSE (0001ms, 0832ms total)
T3D54 001:721 JLINK_IsHalted()  returns FALSE (0001ms, 0832ms total)
T3D54 001:724 JLINK_IsHalted()  returns FALSE (0001ms, 0832ms total)
T3D54 001:730 JLINK_IsHalted()  returns FALSE (0002ms, 0833ms total)
T3D54 001:733 JLINK_IsHalted()  returns FALSE (0001ms, 0832ms total)
T3D54 001:739 JLINK_IsHalted()  returns FALSE (0001ms, 0832ms total)
T3D54 001:746 JLINK_IsHalted()  returns FALSE (0001ms, 0832ms total)
T3D54 001:749 JLINK_IsHalted()  returns FALSE (0001ms, 0832ms total)
T3D54 001:755 JLINK_IsHalted()  returns FALSE (0001ms, 0832ms total)
T3D54 001:762 JLINK_IsHalted()  returns FALSE (0002ms, 0833ms total)
T3D54 001:765 JLINK_IsHalted()  returns FALSE (0001ms, 0832ms total)
T3D54 001:770 JLINK_IsHalted()  returns FALSE (0001ms, 0832ms total)
T3D54 001:773 JLINK_IsHalted()  returns FALSE (0001ms, 0832ms total)
T3D54 001:778 JLINK_IsHalted()  returns FALSE (0001ms, 0832ms total)
T3D54 001:781 JLINK_IsHalted()  returns FALSE (0001ms, 0832ms total)
T3D54 001:787 JLINK_IsHalted()  returns FALSE (0001ms, 0832ms total)
T3D54 001:793 JLINK_IsHalted()  returns FALSE (0001ms, 0832ms total)
T3D54 001:796 JLINK_IsHalted()  returns FALSE (0001ms, 0832ms total)
T3D54 001:801 JLINK_IsHalted()  returns FALSE (0001ms, 0832ms total)
T3D54 001:804 JLINK_IsHalted()  returns FALSE (0001ms, 0832ms total)
T3D54 001:811 JLINK_IsHalted()  returns FALSE (0001ms, 0832ms total)
T3D54 001:814 JLINK_IsHalted()  returns FALSE (0001ms, 0832ms total)
T3D54 001:820 JLINK_IsHalted()  returns FALSE (0001ms, 0832ms total)
T3D54 001:823 JLINK_IsHalted()  returns FALSE (0001ms, 0832ms total)
T3D54 001:826 JLINK_IsHalted()  returns FALSE (0001ms, 0832ms total)
T3D54 001:829 JLINK_IsHalted()  returns FALSE (0001ms, 0832ms total)
T3D54 001:832 JLINK_IsHalted()  returns FALSE (0001ms, 0832ms total)
T3D54 001:835 JLINK_IsHalted()  returns FALSE (0001ms, 0832ms total)
T3D54 001:838 JLINK_IsHalted()  returns FALSE (0001ms, 0832ms total)
T3D54 001:841 JLINK_IsHalted()  returns FALSE (0001ms, 0832ms total)
T3D54 001:847 JLINK_IsHalted()  returns FALSE (0001ms, 0832ms total)
T3D54 001:850 JLINK_IsHalted()  returns FALSE (0001ms, 0832ms total)
T3D54 001:853 JLINK_IsHalted()  returns FALSE (0001ms, 0832ms total)
T3D54 001:856 JLINK_IsHalted()  returns FALSE (0001ms, 0832ms total)
T3D54 001:859 JLINK_IsHalted()  returns FALSE (0001ms, 0832ms total)
T3D54 001:862 JLINK_IsHalted()  returns FALSE (0001ms, 0832ms total)
T3D54 001:865 JLINK_IsHalted()  returns FALSE (0001ms, 0832ms total)
T3D54 001:868 JLINK_IsHalted()  returns FALSE (0001ms, 0832ms total)
T3D54 001:871 JLINK_IsHalted()  returns FALSE (0001ms, 0832ms total)
T3D54 001:874 JLINK_IsHalted()  returns FALSE (0001ms, 0832ms total)
T3D54 001:877 JLINK_IsHalted()  returns FALSE (0001ms, 0832ms total)
T3D54 001:880 JLINK_IsHalted() -- CPU_ReadMem(2 bytes @ 0x20000000)  returns TRUE (0012ms, 0843ms total)
T3D54 001:892 JLINK_ReadReg(R15 (PC))  returns 0x20000000 (0000ms, 0831ms total)
T3D54 001:893 JLINK_ClrBPEx(BPHandle = 0x00000005)  returns 0x00 (0000ms, 0832ms total)
T3D54 001:893 JLINK_ReadReg(R0)  returns 0x00000000 (0000ms, 0832ms total)
T3D54 001:894 JLINK_WriteReg(R0, 0x00000001)  returns 0x00 (0000ms, 0832ms total)
T3D54 001:894 JLINK_WriteReg(R1, 0x00004000)  returns 0x00 (0000ms, 0832ms total)
T3D54 001:894 JLINK_WriteReg(R2, 0x000000FF)  returns 0x00 (0000ms, 0832ms total)
T3D54 001:894 JLINK_WriteReg(R3, 0x00000000)  returns 0x00 (0000ms, 0832ms total)
T3D54 001:894 JLINK_WriteReg(R4, 0x00000000)  returns 0x00 (0000ms, 0832ms total)
T3D54 001:894 JLINK_WriteReg(R5, 0x00000000)  returns 0x00 (0000ms, 0832ms total)
T3D54 001:894 JLINK_WriteReg(R6, 0x00000000)  returns 0x00 (0000ms, 0832ms total)
T3D54 001:894 JLINK_WriteReg(R7, 0x00000000)  returns 0x00 (0000ms, 0832ms total)
T3D54 001:894 JLINK_WriteReg(R8, 0x00000000)  returns 0x00 (0000ms, 0832ms total)
T3D54 001:894 JLINK_WriteReg(R9, 0x20000194)  returns 0x00 (0000ms, 0832ms total)
T3D54 001:894 JLINK_WriteReg(R10, 0x00000000)  returns 0x00 (0000ms, 0832ms total)
T3D54 001:894 JLINK_WriteReg(R11, 0x00000000)  returns 0x00 (0000ms, 0832ms total)
T3D54 001:894 JLINK_WriteReg(R12, 0x00000000)  returns 0x00 (0000ms, 0832ms total)
T3D54 001:894 JLINK_WriteReg(R13 (SP), 0x20001000)  returns 0x00 (0000ms, 0832ms total)
T3D54 001:894 JLINK_WriteReg(R14, 0x20000001)  returns 0x00 (0001ms, 0833ms total)
T3D54 001:895 JLINK_WriteReg(R15 (PC), 0x2000008C)  returns 0x00 (0000ms, 0833ms total)
T3D54 001:895 JLINK_WriteReg(XPSR, 0x01000000)  returns 0x00 (0000ms, 0833ms total)
T3D54 001:895 JLINK_WriteReg(MSP, 0x20001000)  returns 0x00 (0000ms, 0833ms total)
T3D54 001:895 JLINK_WriteReg(PSP, 0x20001000)  returns 0x00 (0000ms, 0833ms total)
T3D54 001:895 JLINK_WriteReg(CFBP, 0x00000000)  returns 0x00 (0000ms, 0833ms total)
T3D54 001:895 JLINK_SetBPEx(Addr = 0x20000000, Type = 0xFFFFFFF2)  returns 0x00000006 (0000ms, 0833ms total)
T3D54 001:895 JLINK_Go() -- CPU_ReadMem(4 bytes @ 0xE0001000) (0007ms, 0840ms total)
T3D54 001:902 JLINK_IsHalted() -- CPU_ReadMem(2 bytes @ 0x20000000)  returns TRUE (0013ms, 0853ms total)
T3D54 001:915 JLINK_ReadReg(R15 (PC))  returns 0x20000000 (0000ms, 0840ms total)
T3D54 001:915 JLINK_ClrBPEx(BPHandle = 0x00000006)  returns 0x00 (0000ms, 0840ms total)
T3D54 001:915 JLINK_ReadReg(R0)  returns 0x00000000 (0000ms, 0840ms total)
T3D54 001:979 JLINK_WriteMem(0x20000000, 0x0198 Bytes, ...) - Data: 00 BE 0A E0 0D 78 2D 06 68 40 08 24 40 00 00 D3 ... -- CPU_WriteMem(408 bytes @ 0x20000000)  returns 0x198 (0019ms, 0859ms total)
T3D54 001:999 JLINK_WriteReg(R0, 0x08000000)  returns 0x00 (0000ms, 0859ms total)
T3D54 001:999 JLINK_WriteReg(R1, 0x0ABA9500)  returns 0x00 (0000ms, 0859ms total)
T3D54 001:999 JLINK_WriteReg(R2, 0x00000002)  returns 0x00 (0000ms, 0859ms total)
T3D54 001:999 JLINK_WriteReg(R3, 0x00000000)  returns 0x00 (0000ms, 0859ms total)
T3D54 001:999 JLINK_WriteReg(R4, 0x00000000)  returns 0x00 (0000ms, 0859ms total)
T3D54 001:999 JLINK_WriteReg(R5, 0x00000000)  returns 0x00 (0000ms, 0859ms total)
T3D54 001:999 JLINK_WriteReg(R6, 0x00000000)  returns 0x00 (0000ms, 0859ms total)
T3D54 001:999 JLINK_WriteReg(R7, 0x00000000)  returns 0x00 (0000ms, 0859ms total)
T3D54 001:999 JLINK_WriteReg(R8, 0x00000000)  returns 0x00 (0000ms, 0859ms total)
T3D54 001:999 JLINK_WriteReg(R9, 0x20000194)  returns 0x00 (0000ms, 0859ms total)
T3D54 001:999 JLINK_WriteReg(R10, 0x00000000)  returns 0x00 (0000ms, 0859ms total)
T3D54 001:999 JLINK_WriteReg(R11, 0x00000000)  returns 0x00 (0001ms, 0860ms total)
T3D54 002:000 JLINK_WriteReg(R12, 0x00000000)  returns 0x00 (0000ms, 0860ms total)
T3D54 002:000 JLINK_WriteReg(R13 (SP), 0x20001000)  returns 0x00 (0000ms, 0860ms total)
T3D54 002:000 JLINK_WriteReg(R14, 0x20000001)  returns 0x00 (0000ms, 0860ms total)
T3D54 002:000 JLINK_WriteReg(R15 (PC), 0x2000005E)  returns 0x00 (0000ms, 0860ms total)
T3D54 002:000 JLINK_WriteReg(XPSR, 0x01000000)  returns 0x00 (0000ms, 0860ms total)
T3D54 002:000 JLINK_WriteReg(MSP, 0x20001000)  returns 0x00 (0000ms, 0860ms total)
T3D54 002:000 JLINK_WriteReg(PSP, 0x20001000)  returns 0x00 (0000ms, 0860ms total)
T3D54 002:000 JLINK_WriteReg(CFBP, 0x00000000)  returns 0x00 (0000ms, 0860ms total)
T3D54 002:000 JLINK_SetBPEx(Addr = 0x20000000, Type = 0xFFFFFFF2) -- CPU_ReadMem(2 bytes @ 0x20000000)  returns 0x00000007 (0001ms, 0861ms total)
T3D54 002:001 JLINK_Go() -- CPU_WriteMem(2 bytes @ 0x20000000) -- CPU_ReadMem(4 bytes @ 0xE0001000) (0007ms, 0868ms total)
T3D54 002:008 JLINK_IsHalted() -- CPU_ReadMem(2 bytes @ 0x20000000)  returns TRUE (0013ms, 0881ms total)
T3D54 002:021 JLINK_ReadReg(R15 (PC))  returns 0x20000000 (0000ms, 0868ms total)
T3D54 002:021 JLINK_ClrBPEx(BPHandle = 0x00000007)  returns 0x00 (0000ms, 0868ms total)
T3D54 002:021 JLINK_ReadReg(R0)  returns 0x00000000 (0000ms, 0868ms total)
T3D54 002:021 JLINK_WriteMem(0x20000198, 0x0400 Bytes, ...) - Data: E0 10 00 20 C1 01 00 08 95 17 00 08 3F 16 00 08 ... -- CPU_WriteMem(1024 bytes @ 0x20000198)  returns 0x400 (0047ms, 0915ms total)
T3D54 002:068 JLINK_WriteReg(R0, 0x08000000)  returns 0x00 (0000ms, 0915ms total)
T3D54 002:068 JLINK_WriteReg(R1, 0x00000400)  returns 0x00 (0000ms, 0915ms total)
T3D54 002:068 JLINK_WriteReg(R2, 0x20000198)  returns 0x00 (0000ms, 0915ms total)
T3D54 002:068 JLINK_WriteReg(R3, 0x00000000)  returns 0x00 (0000ms, 0915ms total)
T3D54 002:068 JLINK_WriteReg(R4, 0x00000000)  returns 0x00 (0000ms, 0915ms total)
T3D54 002:068 JLINK_WriteReg(R5, 0x00000000)  returns 0x00 (0000ms, 0915ms total)
T3D54 002:068 JLINK_WriteReg(R6, 0x00000000)  returns 0x00 (0000ms, 0915ms total)
T3D54 002:068 JLINK_WriteReg(R7, 0x00000000)  returns 0x00 (0000ms, 0915ms total)
T3D54 002:068 JLINK_WriteReg(R8, 0x00000000)  returns 0x00 (0000ms, 0915ms total)
T3D54 002:068 JLINK_WriteReg(R9, 0x20000194)  returns 0x00 (0000ms, 0915ms total)
T3D54 002:068 JLINK_WriteReg(R10, 0x00000000)  returns 0x00 (0000ms, 0915ms total)
T3D54 002:068 JLINK_WriteReg(R11, 0x00000000)  returns 0x00 (0000ms, 0915ms total)
T3D54 002:068 JLINK_WriteReg(R12, 0x00000000)  returns 0x00 (0000ms, 0915ms total)
T3D54 002:068 JLINK_WriteReg(R13 (SP), 0x20001000)  returns 0x00 (0000ms, 0915ms total)
T3D54 002:068 JLINK_WriteReg(R14, 0x20000001)  returns 0x00 (0000ms, 0915ms total)
T3D54 002:068 JLINK_WriteReg(R15 (PC), 0x20000120)  returns 0x00 (0001ms, 0916ms total)
T3D54 002:069 JLINK_WriteReg(XPSR, 0x01000000)  returns 0x00 (0000ms, 0916ms total)
T3D54 002:069 JLINK_WriteReg(MSP, 0x20001000)  returns 0x00 (0000ms, 0916ms total)
T3D54 002:069 JLINK_WriteReg(PSP, 0x20001000)  returns 0x00 (0000ms, 0916ms total)
T3D54 002:069 JLINK_WriteReg(CFBP, 0x00000000)  returns 0x00 (0000ms, 0916ms total)
T3D54 002:069 JLINK_SetBPEx(Addr = 0x20000000, Type = 0xFFFFFFF2)  returns 0x00000008 (0000ms, 0916ms total)
T3D54 002:069 JLINK_Go() -- CPU_ReadMem(4 bytes @ 0xE0001000) (0006ms, 0922ms total)
T3D54 002:075 JLINK_IsHalted()  returns FALSE (0002ms, 0924ms total)
T3D54 002:090 JLINK_IsHalted() -- CPU_ReadMem(2 bytes @ 0x20000000)  returns TRUE (0012ms, 0934ms total)
T3D54 002:103 JLINK_ReadReg(R15 (PC))  returns 0x20000000 (0000ms, 0922ms total)
T3D54 002:103 JLINK_ClrBPEx(BPHandle = 0x00000008)  returns 0x00 (0000ms, 0922ms total)
T3D54 002:103 JLINK_ReadReg(R0)  returns 0x00000000 (0000ms, 0922ms total)
T3D54 002:104 JLINK_WriteMem(0x20000198, 0x0400 Bytes, ...) - Data: 03 F0 3A FC 03 F0 02 F9 00 24 08 E0 20 46 03 F0 ... -- CPU_WriteMem(1024 bytes @ 0x20000198)  returns 0x400 (0046ms, 0968ms total)
T3D54 002:151 JLINK_WriteReg(R0, 0x08000400)  returns 0x00 (0000ms, 0968ms total)
T3D54 002:151 JLINK_WriteReg(R1, 0x00000400)  returns 0x00 (0000ms, 0968ms total)
T3D54 002:151 JLINK_WriteReg(R2, 0x20000198)  returns 0x00 (0000ms, 0968ms total)
T3D54 002:151 JLINK_WriteReg(R3, 0x00000000)  returns 0x00 (0000ms, 0968ms total)
T3D54 002:151 JLINK_WriteReg(R4, 0x00000000)  returns 0x00 (0000ms, 0968ms total)
T3D54 002:151 JLINK_WriteReg(R5, 0x00000000)  returns 0x00 (0000ms, 0968ms total)
T3D54 002:151 JLINK_WriteReg(R6, 0x00000000)  returns 0x00 (0000ms, 0968ms total)
T3D54 002:151 JLINK_WriteReg(R7, 0x00000000)  returns 0x00 (0000ms, 0968ms total)
T3D54 002:151 JLINK_WriteReg(R8, 0x00000000)  returns 0x00 (0000ms, 0968ms total)
T3D54 002:151 JLINK_WriteReg(R9, 0x20000194)  returns 0x00 (0000ms, 0968ms total)
T3D54 002:151 JLINK_WriteReg(R10, 0x00000000)  returns 0x00 (0000ms, 0968ms total)
T3D54 002:151 JLINK_WriteReg(R11, 0x00000000)  returns 0x00 (0000ms, 0968ms total)
T3D54 002:151 JLINK_WriteReg(R12, 0x00000000)  returns 0x00 (0000ms, 0968ms total)
T3D54 002:151 JLINK_WriteReg(R13 (SP), 0x20001000)  returns 0x00 (0000ms, 0968ms total)
T3D54 002:151 JLINK_WriteReg(R14, 0x20000001)  returns 0x00 (0000ms, 0968ms total)
T3D54 002:151 JLINK_WriteReg(R15 (PC), 0x20000120)  returns 0x00 (0000ms, 0968ms total)
T3D54 002:151 JLINK_WriteReg(XPSR, 0x01000000)  returns 0x00 (0000ms, 0968ms total)
T3D54 002:151 JLINK_WriteReg(MSP, 0x20001000)  returns 0x00 (0000ms, 0968ms total)
T3D54 002:151 JLINK_WriteReg(PSP, 0x20001000)  returns 0x00 (0000ms, 0968ms total)
T3D54 002:151 JLINK_WriteReg(CFBP, 0x00000000)  returns 0x00 (0000ms, 0968ms total)
T3D54 002:151 JLINK_SetBPEx(Addr = 0x20000000, Type = 0xFFFFFFF2)  returns 0x00000009 (0000ms, 0968ms total)
T3D54 002:151 JLINK_Go() -- CPU_ReadMem(4 bytes @ 0xE0001000) (0007ms, 0975ms total)
T3D54 002:158 JLINK_IsHalted()  returns FALSE (0001ms, 0976ms total)
T3D54 002:161 JLINK_IsHalted()  returns FALSE (0001ms, 0976ms total)
T3D54 002:171 JLINK_IsHalted() -- CPU_ReadMem(2 bytes @ 0x20000000)  returns TRUE (0012ms, 0987ms total)
T3D54 002:184 JLINK_ReadReg(R15 (PC))  returns 0x20000000 (0000ms, 0975ms total)
T3D54 002:184 JLINK_ClrBPEx(BPHandle = 0x00000009)  returns 0x00 (0000ms, 0975ms total)
T3D54 002:184 JLINK_ReadReg(R0)  returns 0x00000000 (0000ms, 0975ms total)
T3D54 002:185 JLINK_WriteMem(0x20000198, 0x0400 Bytes, ...) - Data: 01 4B 1A 60 10 BD 00 00 00 66 00 40 70 B5 04 46 ... -- CPU_WriteMem(1024 bytes @ 0x20000198)  returns 0x400 (0046ms, 1021ms total)
T3D54 002:231 JLINK_WriteReg(R0, 0x08000800)  returns 0x00 (0000ms, 1021ms total)
T3D54 002:231 JLINK_WriteReg(R1, 0x00000400)  returns 0x00 (0000ms, 1021ms total)
T3D54 002:231 JLINK_WriteReg(R2, 0x20000198)  returns 0x00 (0001ms, 1022ms total)
T3D54 002:232 JLINK_WriteReg(R3, 0x00000000)  returns 0x00 (0000ms, 1022ms total)
T3D54 002:232 JLINK_WriteReg(R4, 0x00000000)  returns 0x00 (0000ms, 1022ms total)
T3D54 002:232 JLINK_WriteReg(R5, 0x00000000)  returns 0x00 (0000ms, 1022ms total)
T3D54 002:232 JLINK_WriteReg(R6, 0x00000000)  returns 0x00 (0000ms, 1022ms total)
T3D54 002:232 JLINK_WriteReg(R7, 0x00000000)  returns 0x00 (0000ms, 1022ms total)
T3D54 002:232 JLINK_WriteReg(R8, 0x00000000)  returns 0x00 (0000ms, 1022ms total)
T3D54 002:232 JLINK_WriteReg(R9, 0x20000194)  returns 0x00 (0000ms, 1022ms total)
T3D54 002:232 JLINK_WriteReg(R10, 0x00000000)  returns 0x00 (0000ms, 1022ms total)
T3D54 002:232 JLINK_WriteReg(R11, 0x00000000)  returns 0x00 (0000ms, 1022ms total)
T3D54 002:232 JLINK_WriteReg(R12, 0x00000000)  returns 0x00 (0000ms, 1022ms total)
T3D54 002:232 JLINK_WriteReg(R13 (SP), 0x20001000)  returns 0x00 (0000ms, 1022ms total)
T3D54 002:232 JLINK_WriteReg(R14, 0x20000001)  returns 0x00 (0000ms, 1022ms total)
T3D54 002:232 JLINK_WriteReg(R15 (PC), 0x20000120)  returns 0x00 (0000ms, 1022ms total)
T3D54 002:232 JLINK_WriteReg(XPSR, 0x01000000)  returns 0x00 (0000ms, 1022ms total)
T3D54 002:232 JLINK_WriteReg(MSP, 0x20001000)  returns 0x00 (0000ms, 1022ms total)
T3D54 002:232 JLINK_WriteReg(PSP, 0x20001000)  returns 0x00 (0000ms, 1022ms total)
T3D54 002:232 JLINK_WriteReg(CFBP, 0x00000000)  returns 0x00 (0000ms, 1022ms total)
T3D54 002:232 JLINK_SetBPEx(Addr = 0x20000000, Type = 0xFFFFFFF2)  returns 0x0000000A (0000ms, 1022ms total)
T3D54 002:232 JLINK_Go() -- CPU_ReadMem(4 bytes @ 0xE0001000) (0007ms, 1029ms total)
T3D54 002:239 JLINK_IsHalted()  returns FALSE (0001ms, 1030ms total)
T3D54 002:246 JLINK_IsHalted() -- CPU_ReadMem(2 bytes @ 0x20000000)  returns TRUE (0012ms, 1041ms total)
T3D54 002:258 JLINK_ReadReg(R15 (PC))  returns 0x20000000 (0000ms, 1029ms total)
T3D54 002:258 JLINK_ClrBPEx(BPHandle = 0x0000000A)  returns 0x00 (0000ms, 1029ms total)
T3D54 002:258 JLINK_ReadReg(R0)  returns 0x00000000 (0000ms, 1029ms total)
T3D54 002:259 JLINK_WriteMem(0x20000198, 0x0400 Bytes, ...) - Data: 8B 72 02 F5 C0 73 03 EB 00 13 5B 68 23 F0 0F 04 ... -- CPU_WriteMem(1024 bytes @ 0x20000198)  returns 0x400 (0046ms, 1076ms total)
T3D54 002:306 JLINK_WriteReg(R0, 0x08000C00)  returns 0x00 (0000ms, 1076ms total)
T3D54 002:306 JLINK_WriteReg(R1, 0x00000400)  returns 0x00 (0000ms, 1076ms total)
T3D54 002:306 JLINK_WriteReg(R2, 0x20000198)  returns 0x00 (0000ms, 1076ms total)
T3D54 002:306 JLINK_WriteReg(R3, 0x00000000)  returns 0x00 (0000ms, 1076ms total)
T3D54 002:306 JLINK_WriteReg(R4, 0x00000000)  returns 0x00 (0000ms, 1076ms total)
T3D54 002:306 JLINK_WriteReg(R5, 0x00000000)  returns 0x00 (0000ms, 1076ms total)
T3D54 002:306 JLINK_WriteReg(R6, 0x00000000)  returns 0x00 (0000ms, 1076ms total)
T3D54 002:306 JLINK_WriteReg(R7, 0x00000000)  returns 0x00 (0000ms, 1076ms total)
T3D54 002:306 JLINK_WriteReg(R8, 0x00000000)  returns 0x00 (0000ms, 1076ms total)
T3D54 002:306 JLINK_WriteReg(R9, 0x20000194)  returns 0x00 (0000ms, 1076ms total)
T3D54 002:306 JLINK_WriteReg(R10, 0x00000000)  returns 0x00 (0000ms, 1076ms total)
T3D54 002:306 JLINK_WriteReg(R11, 0x00000000)  returns 0x00 (0000ms, 1076ms total)
T3D54 002:306 JLINK_WriteReg(R12, 0x00000000)  returns 0x00 (0000ms, 1076ms total)
T3D54 002:306 JLINK_WriteReg(R13 (SP), 0x20001000)  returns 0x00 (0000ms, 1076ms total)
T3D54 002:306 JLINK_WriteReg(R14, 0x20000001)  returns 0x00 (0000ms, 1076ms total)
T3D54 002:306 JLINK_WriteReg(R15 (PC), 0x20000120)  returns 0x00 (0000ms, 1076ms total)
T3D54 002:306 JLINK_WriteReg(XPSR, 0x01000000)  returns 0x00 (0000ms, 1076ms total)
T3D54 002:306 JLINK_WriteReg(MSP, 0x20001000)  returns 0x00 (0000ms, 1076ms total)
T3D54 002:306 JLINK_WriteReg(PSP, 0x20001000)  returns 0x00 (0000ms, 1076ms total)
T3D54 002:306 JLINK_WriteReg(CFBP, 0x00000000)  returns 0x00 (0001ms, 1077ms total)
T3D54 002:307 JLINK_SetBPEx(Addr = 0x20000000, Type = 0xFFFFFFF2)  returns 0x0000000B (0000ms, 1077ms total)
T3D54 002:307 JLINK_Go() -- CPU_ReadMem(4 bytes @ 0xE0001000) (0006ms, 1083ms total)
T3D54 002:313 JLINK_IsHalted()  returns FALSE (0002ms, 1085ms total)
T3D54 002:342 JLINK_IsHalted() -- CPU_ReadMem(2 bytes @ 0x20000000)  returns TRUE (0012ms, 1095ms total)
T3D54 002:354 JLINK_ReadReg(R15 (PC))  returns 0x20000000 (0000ms, 1083ms total)
T3D54 002:354 JLINK_ClrBPEx(BPHandle = 0x0000000B)  returns 0x00 (0000ms, 1083ms total)
T3D54 002:354 JLINK_ReadReg(R0)  returns 0x00000000 (0001ms, 1084ms total)
T3D54 002:356 JLINK_WriteMem(0x20000198, 0x0400 Bytes, ...) - Data: 91 60 78 E0 3C 49 48 31 88 42 05 D1 4F F0 74 61 ... -- CPU_WriteMem(1024 bytes @ 0x20000198)  returns 0x400 (0045ms, 1129ms total)
T3D54 002:401 JLINK_WriteReg(R0, 0x08001000)  returns 0x00 (0000ms, 1129ms total)
T3D54 002:401 JLINK_WriteReg(R1, 0x00000400)  returns 0x00 (0000ms, 1129ms total)
T3D54 002:401 JLINK_WriteReg(R2, 0x20000198)  returns 0x00 (0000ms, 1129ms total)
T3D54 002:401 JLINK_WriteReg(R3, 0x00000000)  returns 0x00 (0000ms, 1129ms total)
T3D54 002:401 JLINK_WriteReg(R4, 0x00000000)  returns 0x00 (0000ms, 1129ms total)
T3D54 002:401 JLINK_WriteReg(R5, 0x00000000)  returns 0x00 (0000ms, 1129ms total)
T3D54 002:401 JLINK_WriteReg(R6, 0x00000000)  returns 0x00 (0000ms, 1129ms total)
T3D54 002:401 JLINK_WriteReg(R7, 0x00000000)  returns 0x00 (0000ms, 1129ms total)
T3D54 002:401 JLINK_WriteReg(R8, 0x00000000)  returns 0x00 (0000ms, 1129ms total)
T3D54 002:402 JLINK_WriteReg(R9, 0x20000194)  returns 0x00 (0000ms, 1129ms total)
T3D54 002:402 JLINK_WriteReg(R10, 0x00000000)  returns 0x00 (0000ms, 1129ms total)
T3D54 002:402 JLINK_WriteReg(R11, 0x00000000)  returns 0x00 (0000ms, 1129ms total)
T3D54 002:402 JLINK_WriteReg(R12, 0x00000000)  returns 0x00 (0000ms, 1129ms total)
T3D54 002:402 JLINK_WriteReg(R13 (SP), 0x20001000)  returns 0x00 (0000ms, 1129ms total)
T3D54 002:402 JLINK_WriteReg(R14, 0x20000001)  returns 0x00 (0000ms, 1129ms total)
T3D54 002:402 JLINK_WriteReg(R15 (PC), 0x20000120)  returns 0x00 (0000ms, 1129ms total)
T3D54 002:402 JLINK_WriteReg(XPSR, 0x01000000)  returns 0x00 (0000ms, 1129ms total)
T3D54 002:402 JLINK_WriteReg(MSP, 0x20001000)  returns 0x00 (0000ms, 1129ms total)
T3D54 002:402 JLINK_WriteReg(PSP, 0x20001000)  returns 0x00 (0000ms, 1129ms total)
T3D54 002:402 JLINK_WriteReg(CFBP, 0x00000000)  returns 0x00 (0000ms, 1129ms total)
T3D54 002:402 JLINK_SetBPEx(Addr = 0x20000000, Type = 0xFFFFFFF2)  returns 0x0000000C (0000ms, 1129ms total)
T3D54 002:402 JLINK_Go() -- CPU_ReadMem(4 bytes @ 0xE0001000) (0007ms, 1136ms total)
T3D54 002:409 JLINK_IsHalted()  returns FALSE (0001ms, 1137ms total)
T3D54 002:426 JLINK_IsHalted() -- CPU_ReadMem(2 bytes @ 0x20000000)  returns TRUE (0012ms, 1148ms total)
T3D54 002:438 JLINK_ReadReg(R15 (PC))  returns 0x20000000 (0000ms, 1136ms total)
T3D54 002:438 JLINK_ClrBPEx(BPHandle = 0x0000000C)  returns 0x00 (0000ms, 1136ms total)
T3D54 002:439 JLINK_ReadReg(R0)  returns 0x00000000 (0000ms, 1137ms total)
T3D54 002:441 JLINK_WriteMem(0x20000198, 0x0400 Bytes, ...) - Data: 90 ED 11 2A 20 EE 02 0A 80 ED 0C 0A 90 ED 0F 0A ... -- CPU_WriteMem(1024 bytes @ 0x20000198)  returns 0x400 (0046ms, 1183ms total)
T3D54 002:488 JLINK_WriteReg(R0, 0x08001400)  returns 0x00 (0000ms, 1183ms total)
T3D54 002:488 JLINK_WriteReg(R1, 0x00000400)  returns 0x00 (0000ms, 1183ms total)
T3D54 002:488 JLINK_WriteReg(R2, 0x20000198)  returns 0x00 (0000ms, 1183ms total)
T3D54 002:488 JLINK_WriteReg(R3, 0x00000000)  returns 0x00 (0000ms, 1183ms total)
T3D54 002:488 JLINK_WriteReg(R4, 0x00000000)  returns 0x00 (0000ms, 1183ms total)
T3D54 002:488 JLINK_WriteReg(R5, 0x00000000)  returns 0x00 (0000ms, 1183ms total)
T3D54 002:488 JLINK_WriteReg(R6, 0x00000000)  returns 0x00 (0000ms, 1183ms total)
T3D54 002:488 JLINK_WriteReg(R7, 0x00000000)  returns 0x00 (0000ms, 1183ms total)
T3D54 002:488 JLINK_WriteReg(R8, 0x00000000)  returns 0x00 (0000ms, 1183ms total)
T3D54 002:488 JLINK_WriteReg(R9, 0x20000194)  returns 0x00 (0000ms, 1183ms total)
T3D54 002:488 JLINK_WriteReg(R10, 0x00000000)  returns 0x00 (0000ms, 1183ms total)
T3D54 002:488 JLINK_WriteReg(R11, 0x00000000)  returns 0x00 (0000ms, 1183ms total)
T3D54 002:488 JLINK_WriteReg(R12, 0x00000000)  returns 0x00 (0000ms, 1183ms total)
T3D54 002:488 JLINK_WriteReg(R13 (SP), 0x20001000)  returns 0x00 (0000ms, 1183ms total)
T3D54 002:488 JLINK_WriteReg(R14, 0x20000001)  returns 0x00 (0000ms, 1183ms total)
T3D54 002:488 JLINK_WriteReg(R15 (PC), 0x20000120)  returns 0x00 (0000ms, 1183ms total)
T3D54 002:488 JLINK_WriteReg(XPSR, 0x01000000)  returns 0x00 (0000ms, 1183ms total)
